<Qucs Dataset 0.0.15>
<indep x 10>
  +5.00000000000e+00
  +1.00000000000e+01
  +1.50000000000e+01
  +2.00000000000e+01
  +2.50000000000e+01
  +3.00000000000e+01
  +3.50000000000e+01
  +4.00000000000e+01
  +4.50000000000e+01
  +5.00000000000e+01
</indep>
<dep V1.I x>
  -3.12727272727e+00
  -2.15000000000e+00
  -1.63809523810e+00
  -1.32307692308e+00
  -1.10967741935e+00
  -9.55555555556e-01
  -8.39024390244e-01
  -7.47826086957e-01
  -6.74509803922e-01
  -6.14285714286e-01
</dep>
<dep izeja.V x>
  +1.56363636364e+01
  +2.15000000000e+01
  +2.45714285714e+01
  +2.64615384615e+01
  +2.77419354839e+01
  +2.86666666667e+01
  +2.93658536585e+01
  +2.99130434783e+01
  +3.03529411765e+01
  +3.07142857143e+01
</dep>
<dep _net0.V x>
  +3.44000000000e+01
  +3.44000000000e+01
  +3.44000000000e+01
  +3.44000000000e+01
  +3.44000000000e+01
  +3.44000000000e+01
  +3.44000000000e+01
  +3.44000000000e+01
  +3.44000000000e+01
  +3.44000000000e+01
</dep>
